T36B0 000:020.146   SEGGER J-Link V7.86c Log File
T36B0 000:020.926   DLL Compiled: Mar  9 2023 16:16:05
T36B0 000:020.932   Logging started @ 2024-11-21 14:37
T36B0 000:020.938 - 20.941ms
T36B0 000:020.947 JLINK_SetWarnOutHandler(...)
T36B0 000:020.954 - 0.009ms
T36B0 000:020.960 JLINK_OpenEx(...)
T36B0 000:022.294   Firmware: J-Link ARM V8 compiled Nov 28 2014 13:44:46
T36B0 000:022.614   Firmware: J-Link ARM V8 compiled Nov 28 2014 13:44:46
T36B0 000:025.136   Hardware: V8.00
T36B0 000:025.154   S/N: 268006107
T36B0 000:025.163   OEM: SEGGER-EDU
T36B0 000:025.171   Feature(s): FlashBP, GDB
T36B0 000:026.375   TELNET listener socket opened on port 19021
T36B0 000:026.477   WEBSRV WEBSRV_Init(): Starting webserver thread(s)
T36B0 000:026.564   WEBSRV Webserver running on local port 19080
T36B0 000:030.203 - 9.255ms returns "O.K."
T36B0 000:030.228 JLINK_GetEmuCaps()
T36B0 000:030.234 - 0.009ms returns 0xB9FF7BBF
T36B0 000:030.244 JLINK_TIF_GetAvailable(...)
T36B0 000:030.422 - 0.180ms
T36B0 000:030.430 JLINK_SetErrorOutHandler(...)
T36B0 000:030.435 - 0.008ms
T36B0 000:030.447 JLINK_ExecCommand("ProjectFile = "\\rsns01\grrumt00$\Desktop\MicrocontrollerLab\MicrocontrollerLab\test_5\JLinkSettings.ini"", ...). 
T36B0 000:039.896   Ref file found at: C:\Keil\ARM\Segger\JLinkDevices.ref
T36B0 000:040.011   REF file references invalid XML file: C:\Program Files\SEGGER\JLink\JLinkDevices.xml
T36B0 000:040.320 - 9.879ms returns 0x00
T36B0 000:040.348 JLINK_ExecCommand("Device = LPC1769", ...). 
T36B0 000:040.585   Device "LPC1769" selected.
T36B0 000:042.173 - 1.827ms returns 0x00
T36B0 000:042.188 JLINK_ExecCommand("DisableConnectionTimeout", ...). 
T36B0 000:042.197 - 0.004ms returns 0x01
T36B0 000:042.203 JLINK_GetHardwareVersion()
T36B0 000:042.209 - 0.008ms returns 80000
T36B0 000:042.216 JLINK_GetDLLVersion()
T36B0 000:042.221 - 0.008ms returns 78603
T36B0 000:042.227 JLINK_GetOEMString(...)
T36B0 000:042.245 JLINK_GetDLLVersion()
T36B0 000:042.250 - 0.008ms returns 78603
T36B0 000:042.256 JLINK_GetCompileDateTime()
T36B0 000:042.262 - 0.008ms
T36B0 000:042.271 JLINK_GetFirmwareString(...)
T36B0 000:042.277 - 0.008ms
T36B0 000:042.285 JLINK_GetHardwareVersion()
T36B0 000:042.290 - 0.008ms returns 80000
T36B0 000:042.300 JLINK_GetSN()
T36B0 000:042.306 - 0.008ms returns 268006107
T36B0 000:042.314 JLINK_GetOEMString(...)
T36B0 000:042.326 JLINK_TIF_Select(JLINKARM_TIF_JTAG)
T36B0 000:042.871 - 0.554ms returns 0x00
T36B0 000:042.886 JLINK_HasError()
T36B0 000:042.896 JLINK_SetSpeed(5000)
T36B0 000:042.951 - 0.058ms
T36B0 000:042.959 JLINK_GetIdData(pIdData)
T36B0 000:044.201   TotalIRLen = 4, IRPrint = 0x01
T36B0 000:044.612   JTAG chain detection found 1 devices:
T36B0 000:044.624    #0 Id: 0x4BA00477, IRLen: 04, CoreSight JTAG-DP
T36B0 000:047.723   Old FW that does not support reading DPIDR via DAP jobs
T36B0 000:050.540   DPv0 detected
T36B0 000:050.551   CoreSight SoC-400 or earlier
T36B0 000:050.562   Scanning AP map to find all available APs
T36B0 000:052.829   AP[1]: Stopped AP scan as end of AP map has been reached
T36B0 000:052.845   AP[0]: AHB-AP (IDR: 0x24770011)
T36B0 000:052.855   Iterating through AP map to find AHB-AP to use
T36B0 000:056.638   AP[0]: Core found
T36B0 000:056.652   AP[0]: AHB-AP ROM base: 0xE00FF000
T36B0 000:058.512   CPUID register: 0x412FC230. Implementer code: 0x41 (ARM)
T36B0 000:058.524   Found Cortex-M3 r2p0, Little endian.
T36B0 000:058.825   -- Max. mem block: 0x00002408
T36B0 000:062.298   CPU_ReadMem(4 bytes @ 0xE000EDF0)
T36B0 000:062.726   CPU_WriteMem(4 bytes @ 0xE000EDF0)
T36B0 000:063.152   CPU_ReadMem(4 bytes @ 0xE0002000)
T36B0 000:063.651   FPUnit: 6 code (BP) slots and 2 literal slots
T36B0 000:063.699   CPU_ReadMem(4 bytes @ 0xE000EDFC)
T36B0 000:064.171   CPU_WriteMem(4 bytes @ 0xE000EDFC)
T36B0 000:064.539   CPU_ReadMem(4 bytes @ 0xE0001000)
T36B0 000:064.961   CPU_WriteMem(4 bytes @ 0xE0001000)
T36B0 000:065.441   CPU_ReadMem(4 bytes @ 0xE000ED88)
T36B0 000:066.012   CPU_WriteMem(4 bytes @ 0xE000ED88)
T36B0 000:066.993   CPU_ReadMem(4 bytes @ 0xE000ED88)
T36B0 000:067.508   CPU_WriteMem(4 bytes @ 0xE000ED88)
T36B0 000:067.908   CoreSight components:
T36B0 000:067.929   ROMTbl[0] @ E00FF000
T36B0 000:067.940   CPU_ReadMem(64 bytes @ 0xE00FF000)
T36B0 000:068.943   CPU_ReadMem(32 bytes @ 0xE000EFE0)
T36B0 000:069.565   [0][0]: E000E000 CID B105E00D PID 002BB000 SCS
T36B0 000:069.597   CPU_ReadMem(32 bytes @ 0xE0001FE0)
T36B0 000:070.186   [0][1]: E0001000 CID B105E00D PID 002BB002 DWT
T36B0 000:070.228   CPU_ReadMem(32 bytes @ 0xE0002FE0)
T36B0 000:070.826   [0][2]: E0002000 CID B105E00D PID 002BB003 FPB
T36B0 000:070.860   CPU_ReadMem(32 bytes @ 0xE0000FE0)
T36B0 000:071.460   [0][3]: E0000000 CID B105E00D PID 002BB001 ITM
T36B0 000:071.481   CPU_ReadMem(32 bytes @ 0xE0040FE0)
T36B0 000:072.071   [0][4]: E0040000 CID B105900D PID 002BB923 TPIU-Lite
T36B0 000:072.103   CPU_ReadMem(32 bytes @ 0xE0041FE0)
T36B0 000:072.690   [0][5]: E0041000 CID B105900D PID 002BB924 ETM-M3
T36B0 000:072.734   pIdData->ScanLen=4
T36B0 000:072.748   
T36B0 000:072.758   pIdData->NumDevices=1
T36B0 000:072.772   
T36B0 000:072.781   pIdData->aId[0]=0x4BA00477
T36B0 000:072.795   
T36B0 000:072.804   pIdData->aIrRead[0]=0
T36B0 000:072.818   
T36B0 000:072.827   pIdData->aScanLen[0]=0
T36B0 000:072.841   
T36B0 000:072.851   pIdData->aScanRead[0]=0
T36B0 000:072.864   
T36B0 000:072.873 - 29.919ms
T36B0 000:072.891 JLINK_JTAG_GetDeviceID(DeviceIndex = 0)
T36B0 000:072.902 - 0.016ms returns 1268778103
T36B0 000:072.948 JLINK_JTAG_GetDeviceInfo(DeviceIndex = 0)
T36B0 000:072.958 - 0.014ms returns 0
T36B0 000:072.970 JLINK_GetDLLVersion()
T36B0 000:072.979 - 0.014ms returns 78603
T36B0 000:072.991 JLINK_CORE_GetFound()
T36B0 000:073.000 - 0.014ms returns 0x30000FF
T36B0 000:073.012 JLINK_GetDebugInfo(0x100 = JLINKARM_ROM_TABLE_ADDR_INDEX)
T36B0 000:073.022   Value=0xE00FF000
T36B0 000:073.036 - 0.029ms returns 0
T36B0 000:073.051 JLINK_GetDebugInfo(0x100 = JLINKARM_ROM_TABLE_ADDR_INDEX)
T36B0 000:073.062   Value=0xE00FF000
T36B0 000:073.075 - 0.028ms returns 0
T36B0 000:073.086 JLINK_GetDebugInfo(0x101 = JLINKARM_DEBUG_INFO_ETM_ADDR_INDEX)
T36B0 000:073.096   Value=0xE0041000
T36B0 000:073.110 - 0.028ms returns 0
T36B0 000:073.123 JLINK_ReadMemEx(0xE0041FD0, 0x20 Bytes, Flags = 0x02000004)
T36B0 000:073.146   CPU_ReadMem(32 bytes @ 0xE0041FD0)
T36B0 000:073.733   Data:  04 00 00 00 00 00 00 00 00 00 00 00 00 00 00 00 ...
T36B0 000:073.747 - 0.629ms returns 32 (0x20)
T36B0 000:073.759 JLINK_GetDebugInfo(0x102 = JLINKARM_DEBUG_INFO_MTB_ADDR_INDEX)
T36B0 000:073.768   Value=0x00000000
T36B0 000:073.780 - 0.025ms returns 0
T36B0 000:073.790 JLINK_GetDebugInfo(0x103 = JLINKARM_DEBUG_INFO_TPIU_ADDR_INDEX)
T36B0 000:073.799   Value=0xE0040000
T36B0 000:073.812 - 0.026ms returns 0
T36B0 000:073.823 JLINK_GetDebugInfo(0x104 = JLINKARM_DEBUG_INFO_ITM_ADDR_INDEX)
T36B0 000:073.832   Value=0xE0000000
T36B0 000:073.845 - 0.026ms returns 0
T36B0 000:073.855 JLINK_GetDebugInfo(0x105 = JLINKARM_DEBUG_INFO_DWT_ADDR_INDEX)
T36B0 000:073.865   Value=0xE0001000
T36B0 000:073.878 - 0.026ms returns 0
T36B0 000:073.888 JLINK_GetDebugInfo(0x106 = JLINKARM_DEBUG_INFO_FPB_ADDR_INDEX)
T36B0 000:073.897   Value=0xE0002000
T36B0 000:073.911 - 0.026ms returns 0
T36B0 000:073.921 JLINK_GetDebugInfo(0x107 = JLINKARM_DEBUG_INFO_NVIC_ADDR_INDEX)
T36B0 000:073.930   Value=0xE000E000
T36B0 000:073.943 - 0.026ms returns 0
T36B0 000:073.954 JLINK_GetDebugInfo(0x10C = JLINKARM_DEBUG_INFO_DBG_ADDR_INDEX)
T36B0 000:073.963   Value=0xE000EDF0
T36B0 000:073.976 - 0.026ms returns 0
T36B0 000:073.986 JLINK_GetDebugInfo(0x01 = Unknown)
T36B0 000:073.997   Value=0x00000000
T36B0 000:074.010 - 0.028ms returns 0
T36B0 000:074.021 JLINK_ReadMemU32(0xE000ED00, 0x1 Items)
T36B0 000:074.033   CPU_ReadMem(4 bytes @ 0xE000ED00)
T36B0 000:074.477   Data:  30 C2 2F 41
T36B0 000:074.522   Debug reg: CPUID
T36B0 000:074.535 - 0.518ms returns 1 (0x1)
T36B0 000:074.546 JLINK_GetDebugInfo(0x10F = JLINKARM_DEBUG_INFO_HAS_CORTEX_M_SECURITY_EXT_INDEX)
T36B0 000:074.557   Value=0x00000000
T36B0 000:074.571 - 0.028ms returns 0
T36B0 000:074.581 JLINK_HasError()
T36B0 000:074.591 JLINK_SetResetType(JLINKARM_CM3_RESET_TYPE_NORMAL)
T36B0 000:074.601 - 0.013ms returns ???
T36B0 000:074.611 JLINK_Reset()
T36B0 000:074.628   CPU is running
T36B0 000:074.642   CPU_WriteMem(4 bytes @ 0xE000EDF0)
T36B0 000:074.980   CPU is running
T36B0 000:075.023   CPU_WriteMem(4 bytes @ 0xE000EDFC)
T36B0 000:075.454   Reset: Halt core after reset via DEMCR.VC_CORERESET.
T36B0 000:075.492   Reset: Reset device via AIRCR.SYSRESETREQ.
T36B0 000:075.506   CPU is running
T36B0 000:075.519   CPU_WriteMem(4 bytes @ 0xE000ED0C)
T36B0 000:126.040   CPU_ReadMem(4 bytes @ 0xE000EDF0)
T36B0 000:126.840   CPU_ReadMem(4 bytes @ 0xE000EDF0)
T36B0 000:130.781   CPU_WriteMem(4 bytes @ 0xE000EDFC)
T36B0 000:137.289   CPU_ReadMem(4 bytes @ 0xE000EDF0)
T36B0 000:140.936   CPU_WriteMem(4 bytes @ 0xE000EDFC)
T36B0 000:141.457   CPU_WriteMem(4 bytes @ 0xE0001028)
T36B0 000:142.057   CPU_WriteMem(4 bytes @ 0xE0001038)
T36B0 000:142.626   CPU_WriteMem(4 bytes @ 0xE0001048)
T36B0 000:143.232   CPU_WriteMem(4 bytes @ 0xE0001058)
T36B0 000:143.759   CPU_WriteMem(4 bytes @ 0xE000EDFC)
T36B0 000:144.280   CPU_WriteMem(4 bytes @ 0xE0001028)
T36B0 000:144.801   CPU_WriteMem(4 bytes @ 0xE0001028)
T36B0 000:145.314   CPU_WriteMem(4 bytes @ 0xE000EDFC)
T36B0 000:145.879   CPU_WriteMem(4 bytes @ 0xE0001028)
T36B0 000:146.453   CPU_WriteMem(4 bytes @ 0xE0001028)
T36B0 000:146.979   CPU_WriteMem(4 bytes @ 0xE000EDFC)
T36B0 000:147.437   CPU_WriteMem(4 bytes @ 0xE0001028)
T36B0 000:147.956   CPU_WriteMem(4 bytes @ 0xE0001028)
T36B0 000:148.478   CPU_WriteMem(4 bytes @ 0xE000EDFC)
T36B0 000:149.002   CPU_WriteMem(4 bytes @ 0xE0001028)
T36B0 000:149.463   CPU_WriteMem(4 bytes @ 0xE0001028)
T36B0 000:149.984   CPU_WriteMem(4 bytes @ 0xE000EDFC)
T36B0 000:150.502   CPU_WriteMem(4 bytes @ 0xE0001050)
T36B0 000:151.020   CPU_WriteMem(4 bytes @ 0xE0001054)
T36B0 000:151.477   CPU_WriteMem(4 bytes @ 0xE0001058)
T36B0 000:152.263   CPU_ReadMem(4 bytes @ 0xE0001000)
T36B0 000:257.701   CPU_WriteMem(4 bytes @ 0xE000EDFC)
T36B0 000:258.689   CPU_WriteMem(4 bytes @ 0xE0001058)
T36B0 000:259.582   CPU_ReadMem(4 bytes @ 0x00000004)
T36B0 000:260.474   CPU_ReadMem(4 bytes @ 0xE0002000)
T36B0 000:261.301   CPU_ReadMem(4 bytes @ 0xE0002008)
T36B0 000:262.000   CPU_ReadMem(4 bytes @ 0xE000200C)
T36B0 000:262.676   CPU_ReadMem(4 bytes @ 0xE0002010)
T36B0 000:263.318   CPU_ReadMem(4 bytes @ 0xE0002014)
T36B0 000:263.934   CPU_ReadMem(4 bytes @ 0xE0002018)
T36B0 000:264.583   CPU_ReadMem(4 bytes @ 0xE000201C)
T36B0 000:265.231   CPU_WriteMem(4 bytes @ 0xE0002000)
T36B0 000:265.863   CPU_WriteMem(4 bytes @ 0xE0002008)
T36B0 000:266.463   CPU_WriteMem(4 bytes @ 0xE000200C)
T36B0 000:267.008   CPU_WriteMem(4 bytes @ 0xE0002010)
T36B0 000:267.486   CPU_WriteMem(4 bytes @ 0xE0002014)
T36B0 000:268.027   CPU_WriteMem(4 bytes @ 0xE0002018)
T36B0 000:268.592   CPU_WriteMem(4 bytes @ 0xE000201C)
T36B0 000:269.181   CPU_ReadMem(4 bytes @ 0xE0001000)
T36B0 000:470.995   CPU did not halt after bootloader.
T36B0 000:473.964   CPU_WriteMem(4 bytes @ 0xE0002000)
T36B0 000:474.396   CPU_WriteMem(4 bytes @ 0xE0002008)
T36B0 000:474.776   CPU_WriteMem(4 bytes @ 0xE000200C)
T36B0 000:475.205   CPU_WriteMem(4 bytes @ 0xE0002010)
T36B0 000:475.628   CPU_WriteMem(4 bytes @ 0xE0002014)
T36B0 000:476.162   CPU_WriteMem(4 bytes @ 0xE0002018)
T36B0 000:476.602   CPU_WriteMem(4 bytes @ 0xE000201C)
T36B0 000:477.004   CPU_WriteMem(4 bytes @ 0xE0002000)
T36B0 000:477.395   CPU_ReadMem(4 bytes @ 0xE000EDFC)
T36B0 000:477.850   CPU_ReadMem(4 bytes @ 0xE0001000)
T36B0 000:478.610 - 404.003ms
T36B0 000:478.721 JLINK_HasError()
T36B0 000:478.756 JLINK_ReadReg(R15 (PC))
T36B0 000:478.786 - 0.038ms returns 0x1FFF0BA8
T36B0 000:478.805 JLINK_ReadReg(XPSR)
T36B0 000:478.821 - 0.023ms returns 0x21000000
T36B0 000:478.838 JLINK_Halt()
T36B0 000:478.853 - 0.021ms returns 0x00
T36B0 000:478.870 JLINK_ReadMemU32(0xE000EDF0, 0x1 Items)
T36B0 000:479.776   CPU_ReadMem(4 bytes @ 0xE000EDF0)
T36B0 000:480.170   Data:  03 00 03 00
T36B0 000:480.204   Debug reg: DHCSR
T36B0 000:480.214 - 1.348ms returns 1 (0x1)
T36B0 000:480.229 JLINK_WriteU32_64(0xE000EDF0, 0xA05F0003)
T36B0 000:480.237   Debug reg: DHCSR
T36B0 000:480.509   CPU_WriteMem(4 bytes @ 0xE000EDF0)
T36B0 000:480.911 - 0.688ms returns 0 (0x00000000)
T36B0 000:480.925 JLINK_WriteU32_64(0xE000EDFC, 0x01000000)
T36B0 000:480.933   Debug reg: DEMCR
T36B0 000:480.949   CPU_WriteMem(4 bytes @ 0xE000EDFC)
T36B0 000:481.295 - 0.374ms returns 0 (0x00000000)
T36B0 000:481.325 JLINK_GetHWStatus(...)
T36B0 000:481.545 - 0.224ms returns 0
T36B0 000:481.566 JLINK_GetNumBPUnits(Type = 0xFFFFFF00)
T36B0 000:481.573 - 0.010ms returns 0x06
T36B0 000:481.581 JLINK_GetNumBPUnits(Type = 0xF0)
T36B0 000:481.588 - 0.010ms returns 0x2000
T36B0 000:481.596 JLINK_GetNumWPUnits()
T36B0 000:481.602 - 0.010ms returns 4
T36B0 000:481.617 JLINK_GetSpeed()
T36B0 000:481.624 - 0.010ms returns 4800
T36B0 000:481.637 JLINK_ReadMemU32(0xE000E004, 0x1 Items)
T36B0 000:481.646   CPU_ReadMem(4 bytes @ 0xE000E004)
T36B0 000:482.146   Data:  01 00 00 00
T36B0 000:482.189 - 0.563ms returns 1 (0x1)
T36B0 000:482.205 JLINK_ReadMemU32(0xE000E004, 0x1 Items)
T36B0 000:482.213   CPU_ReadMem(4 bytes @ 0xE000E004)
T36B0 000:482.719   Data:  01 00 00 00
T36B0 000:482.761 - 0.568ms returns 1 (0x1)
T36B0 000:482.781 JLINK_WriteMemEx(0xE0001000, 0x0000001C Bytes, Flags = 0x02000004)
T36B0 000:482.789   Data:  01 00 00 00 00 00 00 00 00 00 00 00 00 00 00 00 ...
T36B0 000:482.802   CPU_WriteMem(28 bytes @ 0xE0001000)
T36B0 000:483.402 - 0.625ms returns 0x1C
T36B0 000:483.420 JLINK_HasError()
T36B0 000:483.429 JLINK_ReadReg(R15 (PC))
T36B0 000:483.437 - 0.011ms returns 0x1FFF0BA8
T36B0 000:483.445 JLINK_ReadReg(XPSR)
T36B0 000:483.452 - 0.010ms returns 0x21000000
T36B0 000:485.240 JLINK_ReadMemEx(0xE0001004, 0x4 Bytes, Flags = 0x02000000)
T36B0 000:485.256   Data:  00 00 00 00
T36B0 000:485.265   Debug reg: DWT_CYCCNT
T36B0 000:485.274 - 0.036ms returns 4 (0x4)
T36B0 000:499.883 JLINK_ReadMemEx(0x400FC104, 0x4 Bytes, Flags = 0x02000000)
T36B0 000:499.915   CPU_ReadMem(4 bytes @ 0x400FC104)
T36B0 000:500.409   Data:  14 00 00 00
T36B0 000:500.446 - 0.565ms returns 4 (0x4)
T36B0 000:500.494 JLINK_ReadMemEx(0x400FC108, 0x4 Bytes, Flags = 0x02000000)
T36B0 000:500.501   CPU_ReadMem(4 bytes @ 0x400FC108)
T36B0 000:500.986   Data:  00 00 00 00
T36B0 000:501.029 - 0.550ms returns 4 (0x4)
T36B0 000:501.048 JLINK_ReadMemEx(0x400FC1A8, 0x4 Bytes, Flags = 0x02000000)
T36B0 000:501.053   CPU_ReadMem(4 bytes @ 0x400FC1A8)
T36B0 000:501.477   Data:  00 00 0C 00
T36B0 000:501.520 - 0.480ms returns 4 (0x4)
T36B0 000:501.532 JLINK_ReadMemEx(0x400FC1AC, 0x4 Bytes, Flags = 0x02000000)
T36B0 000:501.537   CPU_ReadMem(4 bytes @ 0x400FC1AC)
T36B0 000:501.998   Data:  00 00 00 00
T36B0 000:502.040 - 0.521ms returns 4 (0x4)
T36B0 000:502.067 JLINK_ReadMemEx(0x400FC10C, 0x4 Bytes, Flags = 0x02000000)
T36B0 000:502.072   CPU_ReadMem(4 bytes @ 0x400FC10C)
T36B0 000:502.531   Data:  00 00 00 00
T36B0 000:502.573 - 0.513ms returns 4 (0x4)
T36B0 000:502.585 JLINK_ReadMemEx(0x400FC088, 0x4 Bytes, Flags = 0x02000000)
T36B0 000:502.591   CPU_ReadMem(4 bytes @ 0x400FC088)
T36B0 000:503.045   Data:  0E 01 06 07
T36B0 000:503.087 - 0.515ms returns 4 (0x4)
T36B0 000:503.108 JLINK_ReadMemEx(0x400FC104, 0x4 Bytes, Flags = 0x02000000)
T36B0 000:503.113   CPU_ReadMem(4 bytes @ 0x400FC104)
T36B0 000:503.599   Data:  14 00 00 00
T36B0 000:503.640 - 0.546ms returns 4 (0x4)
T36B0 000:503.670 JLINK_ReadMemEx(0x400FC108, 0x4 Bytes, Flags = 0x02000000)
T36B0 000:503.675   CPU_ReadMem(4 bytes @ 0x400FC108)
T36B0 000:504.141   Data:  00 00 00 00
T36B0 000:504.183 - 0.526ms returns 4 (0x4)
T36B0 000:504.206 JLINK_ReadMemEx(0x400FC088, 0x4 Bytes, Flags = 0x02000000)
T36B0 000:504.211   CPU_ReadMem(4 bytes @ 0x400FC088)
T36B0 000:504.648   Data:  0E 01 06 07
T36B0 000:504.656 - 0.451ms returns 4 (0x4)
T36B0 000:504.696 JLINK_ReadMemEx(0x400FC0A8, 0x4 Bytes, Flags = 0x02000000)
T36B0 000:504.703   CPU_ReadMem(4 bytes @ 0x400FC0A8)
T36B0 000:505.170   Data:  00 00 00 00
T36B0 000:505.212 - 0.528ms returns 4 (0x4)
T36B0 000:505.234 JLINK_ReadMemEx(0x400FC104, 0x4 Bytes, Flags = 0x02000000)
T36B0 000:505.239   CPU_ReadMem(4 bytes @ 0x400FC104)
T36B0 000:505.722   Data:  14 00 00 00
T36B0 000:505.763 - 0.542ms returns 4 (0x4)
T36B0 000:505.795 JLINK_ReadMemEx(0x400FC088, 0x4 Bytes, Flags = 0x02000000)
T36B0 000:505.800   CPU_ReadMem(4 bytes @ 0x400FC088)
T36B0 000:506.245   Data:  0E 01 06 07
T36B0 000:506.286 - 0.495ms returns 4 (0x4)
T36B0 000:506.293 JLINK_ReadMemEx(0x400FC10C, 0x4 Bytes, Flags = 0x02000000)
T36B0 000:506.299   CPU_ReadMem(4 bytes @ 0x400FC10C)
T36B0 000:506.718   Data:  00 00 00 00
T36B0 000:506.760 - 0.479ms returns 4 (0x4)
T36B0 000:506.783 JLINK_ReadMemEx(0x400FC1A8, 0x4 Bytes, Flags = 0x02000000)
T36B0 000:506.788   CPU_ReadMem(4 bytes @ 0x400FC1A8)
T36B0 000:507.245   Data:  00 00 0C 00
T36B0 000:507.286 - 0.505ms returns 4 (0x4)
T36B0 000:507.292 JLINK_ReadMemEx(0x400FC104, 0x4 Bytes, Flags = 0x02000000)
T36B0 000:507.297   CPU_ReadMem(4 bytes @ 0x400FC104)
T36B0 000:507.720   Data:  14 00 00 00
T36B0 000:507.762 - 0.481ms returns 4 (0x4)
T36B0 000:507.776 JLINK_ReadMemEx(0x400FC1AC, 0x4 Bytes, Flags = 0x02000000)
T36B0 000:507.782   CPU_ReadMem(4 bytes @ 0x400FC1AC)
T36B0 000:508.241   Data:  00 00 00 00
T36B0 000:508.284 - 0.521ms returns 4 (0x4)
T36B0 000:508.301 JLINK_ReadMemEx(0x400FC0A8, 0x4 Bytes, Flags = 0x02000000)
T36B0 000:508.306   CPU_ReadMem(4 bytes @ 0x400FC0A8)
T36B0 000:508.742   Data:  00 00 00 00
T36B0 000:508.749 - 0.450ms returns 4 (0x4)
T36B0 000:508.755 JLINK_ReadMemEx(0x400FC108, 0x4 Bytes, Flags = 0x02000000)
T36B0 000:508.760   CPU_ReadMem(4 bytes @ 0x400FC108)
T36B0 000:509.220   Data:  00 00 00 00
T36B0 000:509.243 - 0.490ms returns 4 (0x4)
T36B0 000:509.249 JLINK_ReadMemEx(0x400FC088, 0x4 Bytes, Flags = 0x02000000)
T36B0 000:509.255   CPU_ReadMem(4 bytes @ 0x400FC088)
T36B0 000:509.683   Data:  0E 01 06 07
T36B0 000:509.697 - 0.449ms returns 4 (0x4)
T36B0 000:509.704 JLINK_ReadMemEx(0x400FC10C, 0x4 Bytes, Flags = 0x02000000)
T36B0 000:509.711   CPU_ReadMem(4 bytes @ 0x400FC10C)
T36B0 000:510.171   Data:  00 00 00 00
T36B0 000:510.212 - 0.510ms returns 4 (0x4)
T36B0 000:510.218 JLINK_ReadMemEx(0x400FC0A8, 0x4 Bytes, Flags = 0x02000000)
T36B0 000:510.224   CPU_ReadMem(4 bytes @ 0x400FC0A8)
T36B0 000:510.650   Data:  00 00 00 00
T36B0 000:510.692 - 0.482ms returns 4 (0x4)
T36B0 000:526.025 JLINK_ReadMemEx(0x400FC104, 0x4 Bytes, Flags = 0x02000000)
T36B0 000:526.065   CPU_ReadMem(4 bytes @ 0x400FC104)
T36B0 000:526.580   Data:  14 00 00 00
T36B0 000:526.599 - 0.577ms returns 4 (0x4)
T36B0 000:527.513 JLINK_ReadMemEx(0x2009C000, 0x20 Bytes, Flags = 0x02000000)
T36B0 000:527.539   CPU_ReadMem(32 bytes @ 0x2009C000)
T36B0 000:528.204   Data:  00 00 00 00 00 00 00 00 00 00 00 00 00 00 00 00 ...
T36B0 000:528.243 - 0.733ms returns 32 (0x20)
T36B0 000:549.463 JLINK_ReadMemEx(0x2009C000, 0x4 Bytes, Flags = 0x02000000)
T36B0 000:549.495   CPU_ReadMem(4 bytes @ 0x2009C000)
T36B0 000:550.014   Data:  00 00 00 00
T36B0 000:550.058 - 0.600ms returns 4 (0x4)
T36B0 000:975.172 JLINK_ReadMemEx(0x1FFF0BA8, 0x3C Bytes, Flags = 0x02000000)
T36B0 000:975.206   CPU_ReadMem(60 bytes @ 0x1FFF0BA8)
T36B0 000:976.126   Data:  60 69 00 07 FC D5 01 20 70 60 60 69 00 07 FC D4 ...
T36B0 000:976.144 - 0.975ms returns 60 (0x3C)
T36B0 000:976.153 JLINK_ReadMemEx(0x1FFF0BA8, 0x2 Bytes, Flags = 0x02000000)
T36B0 000:976.163   CPU_ReadMem(2 bytes @ 0x1FFF0BA8)
T36B0 000:976.649   Data:  60 69
T36B0 000:976.684 - 0.533ms returns 2 (0x2)
T36B0 000:976.736 JLINK_ReadMemEx(0x1FFF0BAA, 0x2 Bytes, Flags = 0x02000000)
T36B0 000:976.745   CPU_ReadMem(2 bytes @ 0x1FFF0BAA)
T36B0 000:977.198   Data:  00 07
T36B0 000:977.227 - 0.493ms returns 2 (0x2)
T36B0 000:977.429 JLINK_ReadMemEx(0x1FFF0BAA, 0x2 Bytes, Flags = 0x02000000)
T36B0 000:977.439   CPU_ReadMem(2 bytes @ 0x1FFF0BAA)
T36B0 000:977.902   Data:  00 07
T36B0 000:977.945 - 0.521ms returns 2 (0x2)
T36B0 000:977.955 JLINK_ReadMemEx(0x1FFF0BAC, 0x3C Bytes, Flags = 0x02000000)
T36B0 000:977.960   CPU_ReadMem(60 bytes @ 0x1FFF0BAC)
T36B0 000:978.847   Data:  FC D5 01 20 70 60 60 69 00 07 FC D4 60 69 00 07 ...
T36B0 000:978.888 - 0.947ms returns 60 (0x3C)
T36B0 000:978.922 JLINK_ReadMemEx(0x1FFF0BAC, 0x2 Bytes, Flags = 0x02000000)
T36B0 000:978.948   CPU_ReadMem(2 bytes @ 0x1FFF0BAC)
T36B0 000:979.367   Data:  FC D5
T36B0 000:979.409 - 0.491ms returns 2 (0x2)
T36B0 000:979.419 JLINK_ReadMemEx(0x1FFF0BAC, 0x3C Bytes, Flags = 0x02000000)
T36B0 000:979.425   CPU_ReadMem(60 bytes @ 0x1FFF0BAC)
T36B0 000:980.248   Data:  FC D5 01 20 70 60 60 69 00 07 FC D4 60 69 00 07 ...
T36B0 000:980.290 - 0.883ms returns 60 (0x3C)
T36B0 000:980.322 JLINK_ReadMemEx(0x1FFF0BAC, 0x2 Bytes, Flags = 0x02000000)
T36B0 000:980.347   CPU_ReadMem(2 bytes @ 0x1FFF0BAC)
T36B0 000:980.805   Data:  FC D5
T36B0 000:980.846 - 0.531ms returns 2 (0x2)
T36B0 000:980.857 JLINK_ReadMemEx(0x1FFF0BAE, 0x2 Bytes, Flags = 0x02000000)
T36B0 000:980.862   CPU_ReadMem(2 bytes @ 0x1FFF0BAE)
T36B0 000:981.317   Data:  01 20
T36B0 000:981.359 - 0.509ms returns 2 (0x2)
T36B0 000:981.372 JLINK_ReadMemEx(0x1FFF0BAE, 0x2 Bytes, Flags = 0x02000000)
T36B0 000:981.377   CPU_ReadMem(2 bytes @ 0x1FFF0BAE)
T36B0 000:981.840   Data:  01 20
T36B0 000:981.882 - 0.522ms returns 2 (0x2)
T36B0 000:981.898 JLINK_ReadMemEx(0x1FFF0BB0, 0x3C Bytes, Flags = 0x02000000)
T36B0 000:981.903   CPU_ReadMem(60 bytes @ 0x1FFF0BB0)
T36B0 000:982.749   Data:  70 60 60 69 00 07 FC D4 60 69 00 07 FC D5 77 60 ...
T36B0 000:982.790 - 0.905ms returns 60 (0x3C)
T36B0 000:982.823 JLINK_ReadMemEx(0x1FFF0BB0, 0x2 Bytes, Flags = 0x02000000)
T36B0 000:982.850   CPU_ReadMem(2 bytes @ 0x1FFF0BB0)
T36B0 000:983.268   Data:  70 60
T36B0 000:983.275 - 0.454ms returns 2 (0x2)
T36B0 000:983.282 JLINK_ReadMemEx(0x1FFF0BB0, 0x3C Bytes, Flags = 0x02000000)
T36B0 000:983.288   CPU_ReadMem(60 bytes @ 0x1FFF0BB0)
T36B0 000:984.309   Data:  70 60 60 69 00 07 FC D4 60 69 00 07 FC D5 77 60 ...
T36B0 000:984.342 - 1.064ms returns 60 (0x3C)
T36B0 000:984.356 JLINK_ReadMemEx(0x1FFF0BB0, 0x2 Bytes, Flags = 0x02000000)
T36B0 000:984.373   CPU_ReadMem(2 bytes @ 0x1FFF0BB0)
T36B0 000:984.862   Data:  70 60
T36B0 000:984.896 - 0.542ms returns 2 (0x2)
T36B0 000:984.903 JLINK_ReadMemEx(0x1FFF0BB2, 0x2 Bytes, Flags = 0x02000000)
T36B0 000:984.909   CPU_ReadMem(2 bytes @ 0x1FFF0BB2)
T36B0 000:985.342   Data:  60 69
T36B0 000:985.383 - 0.485ms returns 2 (0x2)
T36B0 000:985.397 JLINK_ReadMemEx(0x1FFF0BB2, 0x2 Bytes, Flags = 0x02000000)
T36B0 000:985.402   CPU_ReadMem(2 bytes @ 0x1FFF0BB2)
T36B0 000:985.859   Data:  60 69
T36B0 000:985.901 - 0.516ms returns 2 (0x2)
T36B0 000:985.916 JLINK_ReadMemEx(0x1FFF0BB4, 0x3C Bytes, Flags = 0x02000000)
T36B0 000:985.922   CPU_ReadMem(60 bytes @ 0x1FFF0BB4)
T36B0 000:986.748   Data:  00 07 FC D4 60 69 00 07 FC D5 77 60 B0 68 80 21 ...
T36B0 000:986.789 - 0.885ms returns 60 (0x3C)
T36B0 000:986.822 JLINK_ReadMemEx(0x1FFF0BB4, 0x2 Bytes, Flags = 0x02000000)
T36B0 000:986.850   CPU_ReadMem(2 bytes @ 0x1FFF0BB4)
T36B0 000:987.268   Data:  00 07
T36B0 000:987.276 - 0.456ms returns 2 (0x2)
T36B0 000:987.283 JLINK_ReadMemEx(0x1FFF0BB4, 0x3C Bytes, Flags = 0x02000000)
T36B0 000:987.288   CPU_ReadMem(60 bytes @ 0x1FFF0BB4)
T36B0 000:988.140   Data:  00 07 FC D4 60 69 00 07 FC D5 77 60 B0 68 80 21 ...
T36B0 000:988.181 - 0.911ms returns 60 (0x3C)
T36B0 000:988.213 JLINK_ReadMemEx(0x1FFF0BB4, 0x2 Bytes, Flags = 0x02000000)
T36B0 000:988.241   CPU_ReadMem(2 bytes @ 0x1FFF0BB4)
T36B0 000:988.724   Data:  00 07
T36B0 000:988.766 - 0.565ms returns 2 (0x2)
T36B0 000:988.799 JLINK_ReadMemEx(0x1FFF0BB6, 0x2 Bytes, Flags = 0x02000000)
T36B0 000:988.807   CPU_ReadMem(2 bytes @ 0x1FFF0BB6)
T36B0 000:989.267   Data:  FC D4
T36B0 000:989.309 - 0.523ms returns 2 (0x2)
T36B0 001:075.157 JLINK_HasError()
T36B0 001:075.174 JLINK_ReadReg(R0)
T36B0 001:075.564 - 0.396ms returns 0x70000000
T36B0 001:075.575 JLINK_ReadReg(R1)
T36B0 001:075.581 - 0.008ms returns 0x10000124
T36B0 001:075.587 JLINK_ReadReg(R2)
T36B0 001:075.592 - 0.007ms returns 0x00000105
T36B0 001:075.597 JLINK_ReadReg(R3)
T36B0 001:075.602 - 0.007ms returns 0x40084000
T36B0 001:075.608 JLINK_ReadReg(R4)
T36B0 001:075.613 - 0.007ms returns 0x2009C000
T36B0 001:075.618 JLINK_ReadReg(R5)
T36B0 001:075.623 - 0.007ms returns 0x00000002
T36B0 001:075.629 JLINK_ReadReg(R6)
T36B0 001:075.634 - 0.007ms returns 0x40008000
T36B0 001:075.639 JLINK_ReadReg(R7)
T36B0 001:075.644 - 0.007ms returns 0x00000000
T36B0 001:075.650 JLINK_ReadReg(R8)
T36B0 001:075.657 - 0.009ms returns 0x4002C000
T36B0 001:075.663 JLINK_ReadReg(R9)
T36B0 001:075.668 - 0.007ms returns 0x100001DC
T36B0 001:075.673 JLINK_ReadReg(R10)
T36B0 001:075.678 - 0.007ms returns 0x00000000
T36B0 001:075.684 JLINK_ReadReg(R11)
T36B0 001:075.689 - 0.007ms returns 0x00000000
T36B0 001:075.694 JLINK_ReadReg(R12)
T36B0 001:075.699 - 0.007ms returns 0x00000000
T36B0 001:075.705 JLINK_ReadReg(R13 (SP))
T36B0 001:075.710 - 0.007ms returns 0x10007FB8
T36B0 001:075.716 JLINK_ReadReg(R14)
T36B0 001:075.721 - 0.007ms returns 0x1FFF0CBF
T36B0 001:075.726 JLINK_ReadReg(R15 (PC))
T36B0 001:075.732 - 0.007ms returns 0x1FFF0BA8
T36B0 001:075.737 JLINK_ReadReg(XPSR)
T36B0 001:075.742 - 0.007ms returns 0x21000000
T36B0 001:075.748 JLINK_ReadReg(MSP)
T36B0 001:075.753 - 0.007ms returns 0x10007FB8
T36B0 001:075.758 JLINK_ReadReg(PSP)
T36B0 001:075.763 - 0.007ms returns 0x10000FE0
T36B0 001:075.769 JLINK_ReadReg(CFBP)
T36B0 001:075.774 - 0.007ms returns 0x00000000
T36B0 001:077.670 JLINK_WriteU8(0x400FC040, 0x00000001)
T36B0 001:077.921   CPU_WriteMem(1 bytes @ 0x400FC040)
T36B0 001:078.404 - 0.745ms returns 0 (0x00000000)
T36B0 001:082.610 JLINK_WriteMemEx(0x10000000, 0x00000550 Bytes, Flags = 0x02000000)
T36B0 001:082.626   Data:  68 62 00 10 69 01 00 10 71 01 00 10 73 01 00 10 ...
T36B0 001:082.855   CPU_WriteMem(1360 bytes @ 0x10000000)
T36B0 001:093.278 - 10.679ms returns 0x550
T36B0 001:145.746 JLINK_ReadMemEx(0x10000000, 0x4 Bytes, Flags = 0x02000000)
T36B0 001:145.852   CPU_ReadMem(64 bytes @ 0x10000000)
T36B0 001:147.168    -- Updating C cache (64 bytes @ 0x10000000)
T36B0 001:147.210    -- Read from C cache (4 bytes @ 0x10000000)
T36B0 001:147.246   Data:  68 62 00 10
T36B0 001:147.286 - 1.552ms returns 4 (0x4)
T36B0 001:147.484 JLINK_HasError()
T36B0 001:147.516 JLINK_WriteReg(R13 (SP), 0x10006268)
T36B0 001:147.546 - 0.041ms returns 0
T36B0 001:147.573 JLINK_HasError()
T36B0 001:147.598 JLINK_ReadReg(R0)
T36B0 001:147.621 - 0.033ms returns 0x70000000
T36B0 001:147.645 JLINK_ReadReg(R1)
T36B0 001:147.667 - 0.031ms returns 0x10000124
T36B0 001:147.691 JLINK_ReadReg(R2)
T36B0 001:147.712 - 0.031ms returns 0x00000105
T36B0 001:147.736 JLINK_ReadReg(R3)
T36B0 001:147.758 - 0.032ms returns 0x40084000
T36B0 001:147.781 JLINK_ReadReg(R4)
T36B0 001:147.803 - 0.031ms returns 0x2009C000
T36B0 001:147.827 JLINK_ReadReg(R5)
T36B0 001:147.848 - 0.031ms returns 0x00000002
T36B0 001:147.872 JLINK_ReadReg(R6)
T36B0 001:147.893 - 0.031ms returns 0x40008000
T36B0 001:147.917 JLINK_ReadReg(R7)
T36B0 001:147.938 - 0.031ms returns 0x00000000
T36B0 001:147.962 JLINK_ReadReg(R8)
T36B0 001:147.983 - 0.031ms returns 0x4002C000
T36B0 001:148.007 JLINK_ReadReg(R9)
T36B0 001:148.028 - 0.031ms returns 0x100001DC
T36B0 001:148.052 JLINK_ReadReg(R10)
T36B0 001:148.074 - 0.031ms returns 0x00000000
T36B0 001:148.097 JLINK_ReadReg(R11)
T36B0 001:148.119 - 0.032ms returns 0x00000000
T36B0 001:148.143 JLINK_ReadReg(R12)
T36B0 001:148.164 - 0.031ms returns 0x00000000
T36B0 001:148.188 JLINK_ReadReg(R13 (SP))
T36B0 001:148.210 - 0.032ms returns 0x10006268
T36B0 001:148.234 JLINK_ReadReg(R14)
T36B0 001:148.258 - 0.034ms returns 0x1FFF0CBF
T36B0 001:148.281 JLINK_ReadReg(R15 (PC))
T36B0 001:148.303 - 0.032ms returns 0x1FFF0BA8
T36B0 001:148.327 JLINK_ReadReg(XPSR)
T36B0 001:148.348 - 0.031ms returns 0x21000000
T36B0 001:149.248 JLINK_ReadReg(MSP)
T36B0 001:149.283 - 0.046ms returns 0x10006268
T36B0 001:149.310 JLINK_ReadReg(PSP)
T36B0 001:149.333 - 0.035ms returns 0x10000FE0
T36B0 001:149.360 JLINK_ReadReg(CFBP)
T36B0 001:149.383 - 0.035ms returns 0x00000000
T36B0 001:149.416 JLINK_ReadMemEx(0x10000004, 0x4 Bytes, Flags = 0x02000000)
T36B0 001:149.447    -- Read from C cache (4 bytes @ 0x10000004)
T36B0 001:149.483   Data:  69 01 00 10
T36B0 001:149.517 - 0.113ms returns 4 (0x4)
T36B0 001:149.547 JLINK_HasError()
T36B0 001:149.574 JLINK_WriteReg(R15 (PC), 0x10000168)
T36B0 001:149.600 - 0.037ms returns 0
T36B0 001:149.629 JLINK_HasError()
T36B0 001:149.655 JLINK_ReadReg(R0)
T36B0 001:149.679 - 0.035ms returns 0x70000000
T36B0 001:149.705 JLINK_ReadReg(R1)
T36B0 001:149.729 - 0.035ms returns 0x10000124
T36B0 001:149.755 JLINK_ReadReg(R2)
T36B0 001:149.779 - 0.035ms returns 0x00000105
T36B0 001:149.805 JLINK_ReadReg(R3)
T36B0 001:149.829 - 0.035ms returns 0x40084000
T36B0 001:149.855 JLINK_ReadReg(R4)
T36B0 001:149.879 - 0.035ms returns 0x2009C000
T36B0 001:149.905 JLINK_ReadReg(R5)
T36B0 001:149.928 - 0.035ms returns 0x00000002
T36B0 001:149.955 JLINK_ReadReg(R6)
T36B0 001:149.979 - 0.035ms returns 0x40008000
T36B0 001:150.005 JLINK_ReadReg(R7)
T36B0 001:150.029 - 0.035ms returns 0x00000000
T36B0 001:150.055 JLINK_ReadReg(R8)
T36B0 001:150.079 - 0.035ms returns 0x4002C000
T36B0 001:150.106 JLINK_ReadReg(R9)
T36B0 001:150.133 - 0.038ms returns 0x100001DC
T36B0 001:150.160 JLINK_ReadReg(R10)
T36B0 001:150.183 - 0.034ms returns 0x00000000
T36B0 001:150.210 JLINK_ReadReg(R11)
T36B0 001:150.234 - 0.035ms returns 0x00000000
T36B0 001:150.261 JLINK_ReadReg(R12)
T36B0 001:150.284 - 0.035ms returns 0x00000000
T36B0 001:150.311 JLINK_ReadReg(R13 (SP))
T36B0 001:150.335 - 0.035ms returns 0x10006268
T36B0 001:150.362 JLINK_ReadReg(R14)
T36B0 001:150.385 - 0.035ms returns 0x1FFF0CBF
T36B0 001:150.412 JLINK_ReadReg(R15 (PC))
T36B0 001:150.436 - 0.035ms returns 0x10000168
T36B0 001:150.462 JLINK_ReadReg(XPSR)
T36B0 001:150.486 - 0.035ms returns 0x21000000
T36B0 001:150.513 JLINK_ReadReg(MSP)
T36B0 001:150.537 - 0.035ms returns 0x10006268
T36B0 001:150.564 JLINK_ReadReg(PSP)
T36B0 001:150.587 - 0.035ms returns 0x10000FE0
T36B0 001:150.614 JLINK_ReadReg(CFBP)
T36B0 001:150.637 - 0.035ms returns 0x00000000
T36B0 001:150.666 JLINK_WriteMemEx(0xE000ED08, 0x00000004 Bytes, Flags = 0x02000000)
T36B0 001:150.691   Data:  00 00 00 10
T36B0 001:150.739   CPU_WriteMem(4 bytes @ 0xE000ED08)
T36B0 001:151.220 - 0.567ms returns 0x4
T36B0 001:151.252 JLINK_ReadMemEx(0x400FC0C4, 0x4 Bytes, Flags = 0x02000000)
T36B0 001:151.281   CPU_ReadMem(4 bytes @ 0x400FC0C4)
T36B0 001:151.796   Data:  DE 87 28 04
T36B0 001:151.832 - 0.590ms returns 4 (0x4)
T36B0 001:151.861 JLINK_WriteMemEx(0x400FC0C4, 0x00000004 Bytes, Flags = 0x02000000)
T36B0 001:151.882   Data:  DE 97 28 04
T36B0 001:151.920   CPU_WriteMem(4 bytes @ 0x400FC0C4)
T36B0 001:152.411 - 0.563ms returns 0x4
T36B0 001:152.441 JLINK_WriteMemEx(0x40034034, 0x00000004 Bytes, Flags = 0x02000000)
T36B0 001:152.463   Data:  00 0F 00 00
T36B0 001:152.499   CPU_WriteMem(4 bytes @ 0x40034034)
T36B0 001:152.955 - 0.525ms returns 0x4
T2C6C 001:168.442 JLINK_ReadMemEx(0x10000168, 0x2 Bytes, Flags = 0x02000000)
T2C6C 001:168.469   CPU_ReadMem(64 bytes @ 0x10000140)
T2C6C 001:169.564    -- Updating C cache (64 bytes @ 0x10000140)
T2C6C 001:169.574    -- Read from C cache (2 bytes @ 0x10000168)
T2C6C 001:169.582   Data:  09 48
T2C6C 001:169.589 - 1.149ms returns 2 (0x2)
T2C6C 001:169.597 JLINK_HasError()
T2C6C 001:169.604 JLINK_SetBPEx(Addr = 0x10000510, Type = 0xFFFFFFF2)
T2C6C 001:169.610 - 0.009ms returns 0x00000001
T2C6C 001:169.617 JLINK_HasError()
T2C6C 001:169.637 JLINK_HasError()
T2C6C 001:169.643 JLINK_Go()
T2C6C 001:169.657   CPU_ReadMem(4 bytes @ 0xE0001000)
T2C6C 001:170.137   CPU_WriteMem(4 bytes @ 0xE0002008)
T2C6C 001:170.163   CPU_WriteMem(4 bytes @ 0xE000200C)
T2C6C 001:170.171   CPU_WriteMem(4 bytes @ 0xE0002010)
T2C6C 001:170.181   CPU_WriteMem(4 bytes @ 0xE0002014)
T2C6C 001:170.188   CPU_WriteMem(4 bytes @ 0xE0002018)
T2C6C 001:170.195   CPU_WriteMem(4 bytes @ 0xE000201C)
T2C6C 001:172.231   CPU_WriteMem(4 bytes @ 0xE0001004)
T2C6C 001:173.641 - 4.007ms
T2C6C 001:274.415 JLINK_HasError()
T2C6C 001:274.455 JLINK_IsHalted()
T2C6C 001:277.351 - 2.908ms returns TRUE
T2C6C 001:277.374 JLINK_HasError()
T2C6C 001:277.385 JLINK_Halt()
T2C6C 001:277.394 - 0.013ms returns 0x00
T2C6C 001:277.405 JLINK_IsHalted()
T2C6C 001:277.414 - 0.013ms returns TRUE
T2C6C 001:277.494 JLINK_IsHalted()
T2C6C 001:277.512 - 0.023ms returns TRUE
T2C6C 001:277.523 JLINK_IsHalted()
T2C6C 001:277.532 - 0.013ms returns TRUE
T2C6C 001:277.543 JLINK_HasError()
T2C6C 001:277.553 JLINK_ReadReg(R15 (PC))
T2C6C 001:277.565 - 0.016ms returns 0x10000510
T2C6C 001:277.576 JLINK_ReadReg(XPSR)
T2C6C 001:277.585 - 0.013ms returns 0x21000000
T2C6C 001:277.597 JLINK_HasError()
T2C6C 001:277.607 JLINK_ClrBPEx(BPHandle = 0x00000001)
T2C6C 001:277.617 - 0.014ms returns 0x00
T2C6C 001:277.627 JLINK_HasError()
T2C6C 001:277.637 JLINK_HasError()
T2C6C 001:277.647 JLINK_ReadMemU32(0xE000ED30, 0x1 Items)
T2C6C 001:277.661   CPU_ReadMem(4 bytes @ 0xE000ED30)
T2C6C 001:278.155   Data:  03 00 00 00
T2C6C 001:278.176 - 0.533ms returns 1 (0x1)
T2C6C 001:278.188 JLINK_ReadMemU32(0xE0001028, 0x1 Items)
T2C6C 001:278.202   CPU_ReadMem(4 bytes @ 0xE0001028)
T2C6C 001:278.712   Data:  00 00 00 00
T2C6C 001:278.740   Debug reg: DWT_FUNC[0]
T2C6C 001:278.753 - 0.569ms returns 1 (0x1)
T2C6C 001:278.765 JLINK_ReadMemU32(0xE0001038, 0x1 Items)
T2C6C 001:278.779   CPU_ReadMem(4 bytes @ 0xE0001038)
T2C6C 001:279.327   Data:  00 02 00 00
T2C6C 001:279.348   Debug reg: DWT_FUNC[1]
T2C6C 001:279.360 - 0.599ms returns 1 (0x1)
T2C6C 001:279.372 JLINK_ReadMemU32(0xE0001048, 0x1 Items)
T2C6C 001:279.385   CPU_ReadMem(4 bytes @ 0xE0001048)
T2C6C 001:279.918   Data:  00 00 00 00
T2C6C 001:279.943   Debug reg: DWT_FUNC[2]
T2C6C 001:279.955 - 0.587ms returns 1 (0x1)
T2C6C 001:279.967 JLINK_ReadMemU32(0xE0001058, 0x1 Items)
T2C6C 001:279.980   CPU_ReadMem(4 bytes @ 0xE0001058)
T2C6C 001:280.497   Data:  00 00 00 01
T2C6C 001:280.518   Debug reg: DWT_FUNC[3]
T2C6C 001:280.530 - 0.568ms returns 1 (0x1)
T2C6C 001:280.604 JLINK_HasError()
T2C6C 001:280.616 JLINK_ReadReg(R0)
T2C6C 001:280.628 - 0.016ms returns 0x10006068
T2C6C 001:280.638 JLINK_ReadReg(R1)
T2C6C 001:280.648 - 0.013ms returns 0x10006068
T2C6C 001:280.658 JLINK_ReadReg(R2)
T2C6C 001:280.667 - 0.013ms returns 0x10006068
T2C6C 001:280.677 JLINK_ReadReg(R3)
T2C6C 001:280.686 - 0.013ms returns 0x10006068
T2C6C 001:280.696 JLINK_ReadReg(R4)
T2C6C 001:280.705 - 0.013ms returns 0x00000000
T2C6C 001:280.715 JLINK_ReadReg(R5)
T2C6C 001:280.724 - 0.013ms returns 0x10006008
T2C6C 001:280.734 JLINK_ReadReg(R6)
T2C6C 001:280.743 - 0.013ms returns 0x00000000
T2C6C 001:280.753 JLINK_ReadReg(R7)
T2C6C 001:280.761 - 0.013ms returns 0x00000000
T2C6C 001:280.771 JLINK_ReadReg(R8)
T2C6C 001:280.780 - 0.013ms returns 0x00000000
T2C6C 001:280.790 JLINK_ReadReg(R9)
T2C6C 001:280.799 - 0.013ms returns 0x100001DC
T2C6C 001:280.809 JLINK_ReadReg(R10)
T2C6C 001:280.818 - 0.013ms returns 0x10000548
T2C6C 001:280.828 JLINK_ReadReg(R11)
T2C6C 001:280.837 - 0.013ms returns 0x00000000
T2C6C 001:280.847 JLINK_ReadReg(R12)
T2C6C 001:280.856 - 0.013ms returns 0x10006048
T2C6C 001:280.865 JLINK_ReadReg(R13 (SP))
T2C6C 001:280.875 - 0.013ms returns 0x10006268
T2C6C 001:280.885 JLINK_ReadReg(R14)
T2C6C 001:280.893 - 0.013ms returns 0x10000157
T2C6C 001:280.903 JLINK_ReadReg(R15 (PC))
T2C6C 001:280.913 - 0.013ms returns 0x10000510
T2C6C 001:280.922 JLINK_ReadReg(XPSR)
T2C6C 001:280.931 - 0.013ms returns 0x21000000
T2C6C 001:280.941 JLINK_ReadReg(MSP)
T2C6C 001:280.950 - 0.013ms returns 0x10006268
T2C6C 001:280.960 JLINK_ReadReg(PSP)
T2C6C 001:280.969 - 0.013ms returns 0x10000FE0
T2C6C 001:280.979 JLINK_ReadReg(CFBP)
T2C6C 001:280.988 - 0.013ms returns 0x00000000
T36B0 001:319.942 JLINK_ReadMemEx(0x400FC104, 0x4 Bytes, Flags = 0x02000000)
T36B0 001:319.982   CPU_ReadMem(4 bytes @ 0x400FC104)
T36B0 001:320.470   Data:  03 00 00 00
T36B0 001:320.479 - 0.539ms returns 4 (0x4)
T36B0 001:320.488 JLINK_ReadMemEx(0x400FC108, 0x4 Bytes, Flags = 0x02000000)
T36B0 001:320.496   CPU_ReadMem(4 bytes @ 0x400FC108)
T36B0 001:320.986   Data:  00 00 00 00
T36B0 001:321.008 - 0.522ms returns 4 (0x4)
T36B0 001:321.014 JLINK_ReadMemEx(0x400FC1A8, 0x4 Bytes, Flags = 0x02000000)
T36B0 001:321.020   CPU_ReadMem(4 bytes @ 0x400FC1A8)
T36B0 001:321.505   Data:  00 00 0C 00
T36B0 001:321.526 - 0.514ms returns 4 (0x4)
T36B0 001:321.532 JLINK_ReadMemEx(0x400FC1AC, 0x4 Bytes, Flags = 0x02000000)
T36B0 001:321.538   CPU_ReadMem(4 bytes @ 0x400FC1AC)
T36B0 001:322.028   Data:  00 00 00 00
T36B0 001:322.051 - 0.520ms returns 4 (0x4)
T36B0 001:322.057 JLINK_ReadMemEx(0x400FC10C, 0x4 Bytes, Flags = 0x02000000)
T36B0 001:322.063   CPU_ReadMem(4 bytes @ 0x400FC10C)
T36B0 001:322.532   Data:  01 00 00 00
T36B0 001:322.539 - 0.484ms returns 4 (0x4)
T36B0 001:322.545 JLINK_ReadMemEx(0x400FC1A0, 0x4 Bytes, Flags = 0x02000000)
T36B0 001:322.551   CPU_ReadMem(4 bytes @ 0x400FC1A0)
T36B0 001:323.011   Data:  60 00 00 00
T36B0 001:323.019 - 0.481ms returns 4 (0x4)
T36B0 001:323.048 JLINK_ReadMemEx(0x400FC088, 0x4 Bytes, Flags = 0x02000000)
T36B0 001:323.054   CPU_ReadMem(4 bytes @ 0x400FC088)
T36B0 001:323.547   Data:  63 00 05 07
T36B0 001:323.568 - 0.521ms returns 4 (0x4)
T36B0 001:323.575 JLINK_ReadMemEx(0x400FC104, 0x4 Bytes, Flags = 0x02000000)
T36B0 001:323.580   CPU_ReadMem(4 bytes @ 0x400FC104)
T36B0 001:324.138   Data:  03 00 00 00
T36B0 001:324.157 - 0.584ms returns 4 (0x4)
T36B0 001:324.163 JLINK_ReadMemEx(0x400FC108, 0x4 Bytes, Flags = 0x02000000)
T36B0 001:324.168   CPU_ReadMem(4 bytes @ 0x400FC108)
T36B0 001:324.596   Data:  00 00 00 00
T36B0 001:324.604 - 0.444ms returns 4 (0x4)
T36B0 001:324.611 JLINK_ReadMemEx(0x400FC088, 0x4 Bytes, Flags = 0x02000000)
T36B0 001:324.617   CPU_ReadMem(4 bytes @ 0x400FC088)
T36B0 001:325.140   Data:  63 00 05 07
T36B0 001:325.162 - 0.553ms returns 4 (0x4)
T36B0 001:325.171 JLINK_ReadMemEx(0x400FC0A8, 0x4 Bytes, Flags = 0x02000000)
T36B0 001:325.176   CPU_ReadMem(4 bytes @ 0x400FC0A8)
T36B0 001:325.598   Data:  23 07 00 00
T36B0 001:325.605 - 0.437ms returns 4 (0x4)
T36B0 001:325.612 JLINK_ReadMemEx(0x400FC104, 0x4 Bytes, Flags = 0x02000000)
T36B0 001:325.618   CPU_ReadMem(4 bytes @ 0x400FC104)
T36B0 001:326.448   Data:  03 00 00 00
T36B0 001:326.476 - 0.869ms returns 4 (0x4)
T36B0 001:326.493 JLINK_ReadMemEx(0x400FC088, 0x4 Bytes, Flags = 0x02000000)
T36B0 001:326.510   CPU_ReadMem(4 bytes @ 0x400FC088)
T36B0 001:326.975   Data:  63 00 05 07
T36B0 001:326.993 - 0.503ms returns 4 (0x4)
T36B0 001:327.003 JLINK_ReadMemEx(0x400FC10C, 0x4 Bytes, Flags = 0x02000000)
T36B0 001:327.011   CPU_ReadMem(4 bytes @ 0x400FC10C)
T36B0 001:327.446   Data:  01 00 00 00
T36B0 001:327.456 - 0.456ms returns 4 (0x4)
T36B0 001:327.464 JLINK_ReadMemEx(0x400FC1A0, 0x4 Bytes, Flags = 0x02000000)
T36B0 001:327.472   CPU_ReadMem(4 bytes @ 0x400FC1A0)
T36B0 001:327.911   Data:  60 00 00 00
T36B0 001:327.920 - 0.458ms returns 4 (0x4)
T36B0 001:327.929 JLINK_ReadMemEx(0x400FC1A8, 0x4 Bytes, Flags = 0x02000000)
T36B0 001:327.936   CPU_ReadMem(4 bytes @ 0x400FC1A8)
T36B0 001:328.442   Data:  00 00 0C 00
T36B0 001:328.451 - 0.523ms returns 4 (0x4)
T36B0 001:328.458 JLINK_ReadMemEx(0x400FC104, 0x4 Bytes, Flags = 0x02000000)
T36B0 001:328.464   CPU_ReadMem(4 bytes @ 0x400FC104)
T36B0 001:328.949   Data:  03 00 00 00
T36B0 001:328.958 - 0.502ms returns 4 (0x4)
T36B0 001:328.966 JLINK_ReadMemEx(0x400FC1AC, 0x4 Bytes, Flags = 0x02000000)
T36B0 001:328.972   CPU_ReadMem(4 bytes @ 0x400FC1AC)
T36B0 001:329.366   Data:  00 00 00 00
T36B0 001:329.384 - 0.420ms returns 4 (0x4)
T36B0 001:329.391 JLINK_ReadMemEx(0x400FC0A8, 0x4 Bytes, Flags = 0x02000000)
T36B0 001:329.397   CPU_ReadMem(4 bytes @ 0x400FC0A8)
T36B0 001:329.849   Data:  23 07 00 00
T36B0 001:329.871 - 0.482ms returns 4 (0x4)
T36B0 001:329.880 JLINK_ReadMemEx(0x400FC108, 0x4 Bytes, Flags = 0x02000000)
T36B0 001:329.887   CPU_ReadMem(4 bytes @ 0x400FC108)
T36B0 001:330.338   Data:  00 00 00 00
T36B0 001:330.364 - 0.485ms returns 4 (0x4)
T36B0 001:330.370 JLINK_ReadMemEx(0x400FC088, 0x4 Bytes, Flags = 0x02000000)
T36B0 001:330.376   CPU_ReadMem(4 bytes @ 0x400FC088)
T36B0 001:330.834   Data:  63 00 05 07
T36B0 001:330.857 - 0.489ms returns 4 (0x4)
T36B0 001:330.864 JLINK_ReadMemEx(0x400FC10C, 0x4 Bytes, Flags = 0x02000000)
T36B0 001:330.870   CPU_ReadMem(4 bytes @ 0x400FC10C)
T36B0 001:331.297   Data:  01 00 00 00
T36B0 001:331.306 - 0.444ms returns 4 (0x4)
T36B0 001:331.315 JLINK_ReadMemEx(0x400FC1A0, 0x4 Bytes, Flags = 0x02000000)
T36B0 001:331.321   CPU_ReadMem(4 bytes @ 0x400FC1A0)
T36B0 001:331.748   Data:  60 00 00 00
T36B0 001:331.767 - 0.454ms returns 4 (0x4)
T36B0 001:331.774 JLINK_ReadMemEx(0x400FC0A8, 0x4 Bytes, Flags = 0x02000000)
T36B0 001:331.780   CPU_ReadMem(4 bytes @ 0x400FC0A8)
T36B0 001:332.219   Data:  23 07 00 00
T36B0 001:332.238 - 0.467ms returns 4 (0x4)
T36B0 001:332.447 JLINK_ReadMemEx(0x2009C000, 0x20 Bytes, Flags = 0x02000000)
T36B0 001:332.456   CPU_ReadMem(32 bytes @ 0x2009C000)
T36B0 001:333.062   Data:  00 00 00 00 00 00 00 00 00 00 00 00 00 00 00 00 ...
T36B0 001:333.071 - 0.626ms returns 32 (0x20)
T36B0 001:334.730 JLINK_ReadMemEx(0x10000510, 0x3C Bytes, Flags = 0x02000000)
T36B0 001:334.747   CPU_ReadMem(128 bytes @ 0x10000500)
T36B0 001:336.076    -- Updating C cache (128 bytes @ 0x10000500)
T36B0 001:336.146    -- Read from C cache (60 bytes @ 0x10000510)
T36B0 001:336.153   Data:  80 B5 82 B0 00 20 01 90 FF F7 8C FE FF F7 80 FE ...
T36B0 001:336.159 - 1.430ms returns 60 (0x3C)
T36B0 001:336.165 JLINK_ReadMemEx(0x10000510, 0x2 Bytes, Flags = 0x02000000)
T36B0 001:336.173    -- Read from C cache (2 bytes @ 0x10000510)
T36B0 001:336.179   Data:  80 B5
T36B0 001:336.185 - 0.021ms returns 2 (0x2)
T36B0 001:336.191 JLINK_ReadMemEx(0x10000512, 0x2 Bytes, Flags = 0x02000000)
T36B0 001:336.196    -- Read from C cache (2 bytes @ 0x10000512)
T36B0 001:336.202   Data:  82 B0
T36B0 001:336.208 - 0.019ms returns 2 (0x2)
T36B0 001:336.733 JLINK_ReadMemEx(0x10000512, 0x2 Bytes, Flags = 0x02000000)
T36B0 001:336.741    -- Read from C cache (2 bytes @ 0x10000512)
T36B0 001:336.748   Data:  82 B0
T36B0 001:336.754 - 0.022ms returns 2 (0x2)
T36B0 001:336.759 JLINK_ReadMemEx(0x10000514, 0x3C Bytes, Flags = 0x02000000)
T36B0 001:336.764    -- Read from C cache (60 bytes @ 0x10000514)
T36B0 001:336.770   Data:  00 20 01 90 FF F7 8C FE FF F7 80 FE FF F7 9E FF ...
T36B0 001:336.776 - 0.019ms returns 60 (0x3C)
T36B0 001:336.781 JLINK_ReadMemEx(0x10000514, 0x2 Bytes, Flags = 0x02000000)
T36B0 001:336.786    -- Read from C cache (2 bytes @ 0x10000514)
T36B0 001:336.792   Data:  00 20
T36B0 001:336.798 - 0.018ms returns 2 (0x2)
T36B0 001:337.251 JLINK_ReadMemEx(0x10000514, 0x3C Bytes, Flags = 0x02000000)
T36B0 001:337.257    -- Read from C cache (60 bytes @ 0x10000514)
T36B0 001:337.264   Data:  00 20 01 90 FF F7 8C FE FF F7 80 FE FF F7 9E FF ...
T36B0 001:337.270 - 0.021ms returns 60 (0x3C)
T36B0 001:337.275 JLINK_ReadMemEx(0x10000514, 0x2 Bytes, Flags = 0x02000000)
T36B0 001:337.280    -- Read from C cache (2 bytes @ 0x10000514)
T36B0 001:337.286   Data:  00 20
T36B0 001:337.292 - 0.019ms returns 2 (0x2)
T36B0 001:337.297 JLINK_ReadMemEx(0x10000516, 0x2 Bytes, Flags = 0x02000000)
T36B0 001:337.301    -- Read from C cache (2 bytes @ 0x10000516)
T36B0 001:337.308   Data:  01 90
T36B0 001:337.314 - 0.019ms returns 2 (0x2)
T36B0 001:337.766 JLINK_ReadMemEx(0x10000516, 0x2 Bytes, Flags = 0x02000000)
T36B0 001:337.772    -- Read from C cache (2 bytes @ 0x10000516)
T36B0 001:337.778   Data:  01 90
T36B0 001:337.784 - 0.020ms returns 2 (0x2)
T36B0 001:337.789 JLINK_ReadMemEx(0x10000518, 0x3C Bytes, Flags = 0x02000000)
T36B0 001:337.794    -- Read from C cache (60 bytes @ 0x10000518)
T36B0 001:337.800   Data:  FF F7 8C FE FF F7 80 FE FF F7 9E FF FF E7 FE E7 ...
T36B0 001:337.810 - 0.022ms returns 60 (0x3C)
T36B0 001:337.815 JLINK_ReadMemEx(0x10000518, 0x2 Bytes, Flags = 0x02000000)
T36B0 001:337.819    -- Read from C cache (2 bytes @ 0x10000518)
T36B0 001:337.826   Data:  FF F7
T36B0 001:337.832 - 0.018ms returns 2 (0x2)
T2C6C 002:443.527 JLINK_ReadMemEx(0x10000510, 0x2 Bytes, Flags = 0x02000000)
T2C6C 002:443.676    -- Read from C cache (2 bytes @ 0x10000510)
T2C6C 002:443.730   Data:  80 B5
T2C6C 002:443.777 - 0.267ms returns 2 (0x2)
T2C6C 002:443.820 JLINK_HasError()
T2C6C 002:443.865 JLINK_HasError()
T2C6C 002:443.904 JLINK_Go()
T2C6C 002:444.589   CPU_ReadMem(4 bytes @ 0xE0001000)
T2C6C 002:445.325   CPU_WriteMem(4 bytes @ 0xE0002008)
T2C6C 002:446.571 - 2.725ms
T2C6C 002:547.021 JLINK_HasError()
T2C6C 002:547.159 JLINK_IsHalted()
T2C6C 002:547.870 - 0.826ms returns FALSE
T2C6C 002:648.391 JLINK_HasError()
T2C6C 002:648.529 JLINK_IsHalted()
T2C6C 002:649.362 - 0.942ms returns FALSE
T2C6C 002:749.865 JLINK_HasError()
T2C6C 002:750.030 JLINK_IsHalted()
T2C6C 002:750.822 - 0.916ms returns FALSE
T2C6C 002:851.322 JLINK_HasError()
T2C6C 002:851.488 JLINK_IsHalted()
T2C6C 002:852.187 - 0.770ms returns FALSE
T2C6C 002:952.430 JLINK_HasError()
T2C6C 002:952.510 JLINK_IsHalted()
T2C6C 002:953.070 - 0.585ms returns FALSE
T2C6C 003:053.465 JLINK_HasError()
T2C6C 003:053.563 JLINK_IsHalted()
T2C6C 003:054.152 - 0.630ms returns FALSE
T2C6C 003:154.397 JLINK_HasError()
T2C6C 003:154.519 JLINK_IsHalted()
T2C6C 003:155.145 - 0.654ms returns FALSE
T2C6C 003:255.496 JLINK_HasError()
T2C6C 003:255.593 JLINK_IsHalted()
T2C6C 003:256.319 - 0.810ms returns FALSE
T2C6C 003:356.961 JLINK_HasError()
T2C6C 003:357.073 JLINK_IsHalted()
T2C6C 003:357.735 - 0.753ms returns FALSE
T2C6C 003:458.249 JLINK_HasError()
T2C6C 003:458.388 JLINK_IsHalted()
T2C6C 003:459.147 - 0.872ms returns FALSE
T2C6C 003:559.527 JLINK_HasError()
T2C6C 003:559.675 JLINK_IsHalted()
T2C6C 003:560.409 - 0.876ms returns FALSE
T2C6C 003:660.915 JLINK_HasError()
T2C6C 003:661.052 JLINK_IsHalted()
T2C6C 003:661.819 - 0.873ms returns FALSE
T2C6C 003:762.285 JLINK_HasError()
T2C6C 003:762.451 JLINK_IsHalted()
T2C6C 003:763.225 - 0.847ms returns FALSE
T2C6C 003:864.461 JLINK_HasError()
T2C6C 003:864.610 JLINK_IsHalted()
T2C6C 003:865.396 - 0.859ms returns FALSE
T2C6C 003:966.081 JLINK_HasError()
T2C6C 003:966.245 JLINK_IsHalted()
T2C6C 003:967.036 - 0.867ms returns FALSE
T2C6C 004:067.446 JLINK_HasError()
T2C6C 004:067.590 JLINK_IsHalted()
T2C6C 004:068.304 - 0.810ms returns FALSE
T2C6C 004:168.671 JLINK_HasError()
T2C6C 004:168.818 JLINK_IsHalted()
T2C6C 004:169.548 - 0.794ms returns FALSE
T2C6C 004:270.626 JLINK_HasError()
T2C6C 004:270.680 JLINK_IsHalted()
T2C6C 004:271.146 - 0.485ms returns FALSE
T2C6C 004:372.040 JLINK_HasError()
T2C6C 004:372.065 JLINK_IsHalted()
T2C6C 004:372.417 - 0.373ms returns FALSE
T2C6C 004:473.408 JLINK_HasError()
T2C6C 004:473.430 JLINK_IsHalted()
T2C6C 004:473.854 - 0.427ms returns FALSE
T2C6C 004:574.496 JLINK_HasError()
T2C6C 004:574.522 JLINK_IsHalted()
T2C6C 004:574.902 - 0.385ms returns FALSE
T2C6C 004:675.601 JLINK_HasError()
T2C6C 004:675.624 JLINK_IsHalted()
T2C6C 004:676.000 - 0.381ms returns FALSE
T2C6C 004:776.794 JLINK_HasError()
T2C6C 004:776.823 JLINK_IsHalted()
T2C6C 004:777.263 - 0.443ms returns FALSE
T2C6C 004:878.115 JLINK_HasError()
T2C6C 004:878.168 JLINK_IsHalted()
T2C6C 004:878.577 - 0.412ms returns FALSE
T2C6C 004:978.695 JLINK_HasError()
T2C6C 004:978.750 JLINK_IsHalted()
T2C6C 004:979.244 - 0.527ms returns FALSE
T2C6C 005:079.632 JLINK_HasError()
T2C6C 005:079.676 JLINK_IsHalted()
T2C6C 005:080.324 - 0.663ms returns FALSE
T2C6C 005:181.314 JLINK_HasError()
T2C6C 005:181.363 JLINK_IsHalted()
T2C6C 005:181.824 - 0.466ms returns FALSE
T2C6C 005:282.190 JLINK_HasError()
T2C6C 005:282.339 JLINK_IsHalted()
T2C6C 005:283.113 - 0.967ms returns FALSE
T2C6C 005:384.117 JLINK_HasError()
T2C6C 005:384.156 JLINK_IsHalted()
T2C6C 005:384.590 - 0.456ms returns FALSE
T2C6C 005:485.575 JLINK_HasError()
T2C6C 005:485.631 JLINK_IsHalted()
T2C6C 005:486.196 - 0.584ms returns FALSE
T2C6C 005:586.760 JLINK_HasError()
T2C6C 005:586.786 JLINK_IsHalted()
T2C6C 005:587.188 - 0.405ms returns FALSE
T2C6C 005:688.023 JLINK_HasError()
T2C6C 005:688.060 JLINK_IsHalted()
T2C6C 005:688.435 - 0.394ms returns FALSE
T2C6C 005:788.990 JLINK_HasError()
T2C6C 005:789.020 JLINK_IsHalted()
T2C6C 005:789.430 - 0.434ms returns FALSE
T2C6C 005:889.871 JLINK_HasError()
T2C6C 005:889.908 JLINK_IsHalted()
T2C6C 005:890.417 - 0.535ms returns FALSE
T2C6C 005:990.868 JLINK_HasError()
T2C6C 005:990.906 JLINK_IsHalted()
T2C6C 005:991.328 - 0.449ms returns FALSE
T2C6C 006:091.847 JLINK_HasError()
T2C6C 006:091.880 JLINK_IsHalted()
T2C6C 006:092.297 - 0.429ms returns FALSE
T2C6C 006:192.774 JLINK_HasError()
T2C6C 006:192.800 JLINK_IsHalted()
T2C6C 006:193.390 - 0.594ms returns FALSE
T2C6C 006:294.392 JLINK_HasError()
T2C6C 006:294.424 JLINK_IsHalted()
T2C6C 006:294.833 - 0.432ms returns FALSE
T2C6C 006:395.477 JLINK_HasError()
T2C6C 006:395.511 JLINK_IsHalted()
T2C6C 006:395.840 - 0.343ms returns FALSE
T2C6C 006:496.539 JLINK_HasError()
T2C6C 006:496.566 JLINK_IsHalted()
T2C6C 006:496.933 - 0.374ms returns FALSE
T2C6C 006:597.830 JLINK_HasError()
T2C6C 006:597.875 JLINK_IsHalted()
T2C6C 006:598.217 - 0.349ms returns FALSE
T2C6C 006:699.089 JLINK_HasError()
T2C6C 006:699.115 JLINK_IsHalted()
T2C6C 006:699.490 - 0.383ms returns FALSE
T2C6C 006:800.114 JLINK_HasError()
T2C6C 006:800.149 JLINK_IsHalted()
T2C6C 006:800.479 - 0.337ms returns FALSE
T2C6C 006:900.713 JLINK_HasError()
T2C6C 006:900.794 JLINK_IsHalted()
T2C6C 006:901.112 - 0.321ms returns FALSE
T2C6C 007:001.703 JLINK_HasError()
T2C6C 007:001.773 JLINK_IsHalted()
T2C6C 007:002.355 - 0.629ms returns FALSE
T2C6C 007:102.784 JLINK_HasError()
